;$FILEVERSION=1.1
;$STARTTIME=46183.4122427894
;
;   Start time: 10/06/2026 09:53:37.777.0
;   Generated by PCAN-View v6.0.0.1040
;
;   Message Number
;   |         Time Offset (ms)
;   |         |        Type
;   |         |        |        ID (hex)
;   |         |        |        |     Data Length
;   |         |        |        |     |   Data Bytes (hex) ...
;   |         |        |        |     |   |
;---+--   ----+----  --+--  ----+---  +  -+ -- -- -- -- -- -- --
     1)      1406.3  Rx     1FFFFFFF  8  24 01 00 00 FF 01 3F 00 
     2)      1409.1  Rx     1FFFFFFF  8  C4 00 11 00 24 FF 00 04 
     3)      1412.1  Rx     1FFFFFFF  8  84 00 17 7C 12 6D 73 08 
     4)      1415.1  Rx     1FFFFFFF  8  44 00 74 8F 16 09 21 04 
     5)      1417.8  Rx     1FFFFFFF  4  04 00 EA 69 
     6)      5505.3  Rx     1FFFFFFF  8  28 01 00 00 FF 01 3F 00 
     7)      5508.1  Rx     1FFFFFFF  8  C8 00 11 00 24 FF 00 04 
     8)      5511.1  Rx     1FFFFFFF  8  88 00 17 7C 12 6D 73 08 
     9)      5514.1  Rx     1FFFFFFF  8  48 00 74 8F 16 09 21 04 
    10)      5516.9  Rx     1FFFFFFF  4  08 00 EA 69 
    11)      9604.5  Rx     1FFFFFFF  8  2C 01 00 00 FF 01 3F 00 
    12)      9607.4  Rx     1FFFFFFF  8  CC 00 11 00 24 FF 00 04 
    13)      9610.3  Rx     1FFFFFFF  8  8C 00 17 7C 12 6D 73 08 
    14)      9613.3  Rx     1FFFFFFF  8  4C 00 74 8F 16 09 21 04 
    15)      9616.1  Rx     1FFFFFFF  4  0C 00 EA 69 
    16)     13703.8  Rx     1FFFFFFF  8  30 01 00 00 FF 01 3F 00 
    17)     13706.7  Rx     1FFFFFFF  8  D0 00 11 00 24 FF 00 04 
    18)     13709.6  Rx     1FFFFFFF  8  90 00 17 7C 12 6D 73 08 
    19)     13712.6  Rx     1FFFFFFF  8  50 00 74 8F 16 09 21 04 
    20)     13715.4  Rx     1FFFFFFF  4  10 00 EA 69 
    21)     17803.3  Rx     1FFFFFFF  8  34 01 00 00 FF 01 3F 00 
    22)     17806.2  Rx     1FFFFFFF  8  D4 00 11 00 24 FF 00 04 
    23)     17809.1  Rx     1FFFFFFF  8  94 00 17 7C 12 6D 73 08 
    24)     17812.1  Rx     1FFFFFFF  8  54 00 74 8F 16 09 21 04 
    25)     17814.9  Rx     1FFFFFFF  4  14 00 EA 69 
    26)     28757.9  Rx     1FFFFFFF  8  24 01 00 00 FF 01 3F 00 
    27)     28760.8  Rx     1FFFFFFF  8  C4 00 11 00 24 FF 00 04 
    28)     28763.7  Rx     1FFFFFFF  8  84 00 17 7C 12 6D 73 08 
    29)     28766.7  Rx     1FFFFFFF  8  44 00 74 8F 16 09 21 04 
    30)     28769.5  Rx     1FFFFFFF  4  04 00 EA 69 
    31)     32856.7  Rx     1FFFFFFF  8  28 01 00 00 FF 01 3F 00 
    32)     32859.6  Rx     1FFFFFFF  8  C8 00 11 00 24 FF 00 04 
    33)     32862.5  Rx     1FFFFFFF  8  88 00 17 7C 12 6D 73 08 
    34)     32865.5  Rx     1FFFFFFF  8  48 00 74 8F 16 09 21 04 
    35)     32868.3  Rx     1FFFFFFF  4  08 00 EA 69 
    36)     36956.0  Rx     1FFFFFFF  8  2C 01 00 00 FF 01 3F 00 
    37)     36958.8  Rx     1FFFFFFF  8  CC 00 11 00 24 FF 00 04 
    38)     36961.8  Rx     1FFFFFFF  8  8C 00 17 7C 12 6D 73 08 
    39)     36964.8  Rx     1FFFFFFF  8  4C 00 74 8F 16 09 21 04 
    40)     36967.6  Rx     1FFFFFFF  4  0C 00 EA 69 
    41)     41055.4  Rx     1FFFFFFF  8  30 01 00 00 FF 01 3F 00 
    42)     41058.3  Rx     1FFFFFFF  8  D0 00 11 00 24 FF 00 04 
    43)     41061.2  Rx     1FFFFFFF  8  90 00 17 7C 12 6D 73 08 
    44)     41064.2  Rx     1FFFFFFF  8  50 00 74 8F 16 09 21 04 
    45)     41067.0  Rx     1FFFFFFF  4  10 00 EA 69 
    46)     45155.1  Rx     1FFFFFFF  8  34 01 00 00 FF 01 3F 00 
    47)     45158.0  Rx     1FFFFFFF  8  D4 00 11 00 24 FF 00 04 
    48)     45160.9  Rx     1FFFFFFF  8  94 00 17 7C 12 6D 73 08 
    49)     45163.9  Rx     1FFFFFFF  8  54 00 74 8F 16 09 21 04 
    50)     45166.7  Rx     1FFFFFFF  4  14 00 EA 69 
    51)     49254.9  Rx     1FFFFFFF  8  38 01 00 00 FF 01 3F 00 
    52)     49257.7  Rx     1FFFFFFF  8  D8 00 11 00 24 FF 00 04 
    53)     49260.7  Rx     1FFFFFFF  8  98 00 17 7C 12 6D 73 08 
    54)     49263.6  Rx     1FFFFFFF  8  58 00 74 8F 16 09 21 04 
    55)     49266.5  Rx     1FFFFFFF  4  18 00 EA 69 
    56)     53354.8  Rx     1FFFFFFF  8  3C 01 00 00 FF 01 3F 00 
    57)     53357.7  Rx     1FFFFFFF  8  DC 00 11 00 24 FF 00 04 
    58)     53360.6  Rx     1FFFFFFF  8  9C 00 17 7C 12 6D 73 08 
    59)     53363.6  Rx     1FFFFFFF  8  5C 00 74 8F 16 09 21 04 
    60)     53366.4  Rx     1FFFFFFF  4  1C 00 EA 69 
    61)     57454.7  Rx     1FFFFFFF  8  24 01 00 00 FF 01 3F 00 
    62)     57457.6  Rx     1FFFFFFF  8  C4 00 11 00 24 FF 00 04 
    63)     57460.6  Rx     1FFFFFFF  8  84 00 17 7C 12 6D 73 08 
    64)     57463.5  Rx     1FFFFFFF  8  44 00 74 8F 16 09 21 04 
    65)     57466.4  Rx     1FFFFFFF  4  04 00 EA 69 
